
**** 05/20/20 15:03:04 ***** PSpice 16.6.0 (October 2012) ***** ID# 0 ********

 ** Profile: "SCHEMATIC1-gong"  [ E:\PSpice\tongdianshiyan2\tongdian-PSpiceFiles\SCHEMATIC1\gong.sim ] 


 ****     CIRCUIT DESCRIPTION


******************************************************************************




** Creating circuit file "gong.cir" 
** WARNING: THIS AUTOMATICALLY GENERATED FILE MAY BE OVERWRITTEN BY SUBSEQUENT SIMULATIONS

*Libraries: 
* Profile Libraries :
* Local Libraries :
* From [PSPICE NETLIST] section of C:\Users\baoka\AppData\Roaming\SPB_Data\cdssetup\OrCAD_PSpice/16.6.0/PSpice.ini file:
.lib "nom.lib" 

*Analysis directives: 
.TRAN  0 1000ns 0 1ns 
.STEP LIN PARAM var 22 202 20 
.OPTIONS ADVCONV
.PROBE64 V(alias(*)) I(alias(*)) W(alias(*)) D(alias(*)) NOISE(alias(*)) 
.INC "..\SCHEMATIC1.net" 



**** INCLUDING SCHEMATIC1.net ****
* source TONGDIAN
V_V1         N00330 0  AC 1.5v
+SIN 0 1.5v 15meg 0 0 0
L_L1         N00319 N00330  1m  
R_R1         0 N00319  5.1 TC=0,0 
C_C1         N00359 0  20u  TC=0,0 
L_L2         N00359 N00352  113n  
L_L3         N00374 N00359  1m  
C_C2         N00352 N00359  1n  TC=0,0 
R_R2         N00359 N00352  {var} TC=0,0 
V_V2         N00374 0 12v
Q_Q1         N00352 N00330 0 Q2N2222
.PARAM  var=22

**** RESUMING gong.cir ****
.END

**** 05/20/20 15:03:04 ***** PSpice 16.6.0 (October 2012) ***** ID# 0 ********

 ** Profile: "SCHEMATIC1-gong"  [ E:\PSpice\tongdianshiyan2\tongdian-PSpiceFiles\SCHEMATIC1\gong.sim ] 


 ****     BJT MODEL PARAMETERS


******************************************************************************




               Q2N2222         
               NPN             
       LEVEL    1            
          IS   14.340000E-15 
          BF  255.9          
          NF    1            
         VAF   74.03         
         IKF     .2847       
         ISE   14.340000E-15 
          NE    1.307        
          BR    6.092        
          NR    1            
         ISS    0            
          RB   10            
          RE    0            
          RC    1            
         CJE   22.010000E-12 
         VJE     .75         
         MJE     .377        
         CJC    7.306000E-12 
         VJC     .75         
         MJC     .3416       
        XCJC    1            
         CJS    0            
         VJS     .75         
          TF  411.100000E-12 
         XTF    3            
         VTF    1.7          
         ITF     .6          
          TR   46.910000E-09 
         XTB    1.5          
          KF    0            
          AF    1            
          CN    2.42         
           D     .87         


**** 05/20/20 15:03:04 ***** PSpice 16.6.0 (October 2012) ***** ID# 0 ********

 ** Profile: "SCHEMATIC1-gong"  [ E:\PSpice\tongdianshiyan2\tongdian-PSpiceFiles\SCHEMATIC1\gong.sim ] 


 ****     INITIAL TRANSIENT SOLUTION       TEMPERATURE =   27.000 DEG C

 ****     CURRENT STEP                     PARAM VAR =   22    


******************************************************************************



 NODE   VOLTAGE     NODE   VOLTAGE     NODE   VOLTAGE     NODE   VOLTAGE


(N00319)    0.0000 (N00330)    0.0000 (N00352)   12.0000 (N00359)   12.0000     

(N00374)   12.0000 




    VOLTAGE SOURCE CURRENTS
    NAME         CURRENT

    V_V1         1.972E-12
    V_V2        -1.593E-11

    TOTAL POWER DISSIPATION   1.91E-10  WATTS


**** 05/20/20 15:03:04 ***** PSpice 16.6.0 (October 2012) ***** ID# 0 ********

 ** Profile: "SCHEMATIC1-gong"  [ E:\PSpice\tongdianshiyan2\tongdian-PSpiceFiles\SCHEMATIC1\gong.sim ] 


 ****     INITIAL TRANSIENT SOLUTION       TEMPERATURE =   27.000 DEG C

 ****     CURRENT STEP                     PARAM VAR =   42    


******************************************************************************



 NODE   VOLTAGE     NODE   VOLTAGE     NODE   VOLTAGE     NODE   VOLTAGE


(N00319)    0.0000 (N00330)    0.0000 (N00352)   12.0000 (N00359)   12.0000     

(N00374)   12.0000 




    VOLTAGE SOURCE CURRENTS
    NAME         CURRENT

    V_V1         1.972E-12
    V_V2        -1.593E-11

    TOTAL POWER DISSIPATION   1.91E-10  WATTS


**** 05/20/20 15:03:04 ***** PSpice 16.6.0 (October 2012) ***** ID# 0 ********

 ** Profile: "SCHEMATIC1-gong"  [ E:\PSpice\tongdianshiyan2\tongdian-PSpiceFiles\SCHEMATIC1\gong.sim ] 


 ****     INITIAL TRANSIENT SOLUTION       TEMPERATURE =   27.000 DEG C

 ****     CURRENT STEP                     PARAM VAR =   62    


******************************************************************************



 NODE   VOLTAGE     NODE   VOLTAGE     NODE   VOLTAGE     NODE   VOLTAGE


(N00319)    0.0000 (N00330)    0.0000 (N00352)   12.0000 (N00359)   12.0000     

(N00374)   12.0000 




    VOLTAGE SOURCE CURRENTS
    NAME         CURRENT

    V_V1         1.972E-12
    V_V2        -1.593E-11

    TOTAL POWER DISSIPATION   1.91E-10  WATTS


**** 05/20/20 15:03:04 ***** PSpice 16.6.0 (October 2012) ***** ID# 0 ********

 ** Profile: "SCHEMATIC1-gong"  [ E:\PSpice\tongdianshiyan2\tongdian-PSpiceFiles\SCHEMATIC1\gong.sim ] 


 ****     INITIAL TRANSIENT SOLUTION       TEMPERATURE =   27.000 DEG C

 ****     CURRENT STEP                     PARAM VAR =   82    


******************************************************************************



 NODE   VOLTAGE     NODE   VOLTAGE     NODE   VOLTAGE     NODE   VOLTAGE


(N00319)    0.0000 (N00330)    0.0000 (N00352)   12.0000 (N00359)   12.0000     

(N00374)   12.0000 




    VOLTAGE SOURCE CURRENTS
    NAME         CURRENT

    V_V1         1.972E-12
    V_V2        -1.593E-11

    TOTAL POWER DISSIPATION   1.91E-10  WATTS


**** 05/20/20 15:03:04 ***** PSpice 16.6.0 (October 2012) ***** ID# 0 ********

 ** Profile: "SCHEMATIC1-gong"  [ E:\PSpice\tongdianshiyan2\tongdian-PSpiceFiles\SCHEMATIC1\gong.sim ] 


 ****     INITIAL TRANSIENT SOLUTION       TEMPERATURE =   27.000 DEG C

 ****     CURRENT STEP                     PARAM VAR =  102   


******************************************************************************



 NODE   VOLTAGE     NODE   VOLTAGE     NODE   VOLTAGE     NODE   VOLTAGE


(N00319)    0.0000 (N00330)    0.0000 (N00352)   12.0000 (N00359)   12.0000     

(N00374)   12.0000 




    VOLTAGE SOURCE CURRENTS
    NAME         CURRENT

    V_V1         1.972E-12
    V_V2        -1.593E-11

    TOTAL POWER DISSIPATION   1.91E-10  WATTS


**** 05/20/20 15:03:04 ***** PSpice 16.6.0 (October 2012) ***** ID# 0 ********

 ** Profile: "SCHEMATIC1-gong"  [ E:\PSpice\tongdianshiyan2\tongdian-PSpiceFiles\SCHEMATIC1\gong.sim ] 


 ****     INITIAL TRANSIENT SOLUTION       TEMPERATURE =   27.000 DEG C

 ****     CURRENT STEP                     PARAM VAR =  122   


******************************************************************************



 NODE   VOLTAGE     NODE   VOLTAGE     NODE   VOLTAGE     NODE   VOLTAGE


(N00319)    0.0000 (N00330)    0.0000 (N00352)   12.0000 (N00359)   12.0000     

(N00374)   12.0000 




    VOLTAGE SOURCE CURRENTS
    NAME         CURRENT

    V_V1         1.972E-12
    V_V2        -1.593E-11

    TOTAL POWER DISSIPATION   1.91E-10  WATTS


**** 05/20/20 15:03:04 ***** PSpice 16.6.0 (October 2012) ***** ID# 0 ********

 ** Profile: "SCHEMATIC1-gong"  [ E:\PSpice\tongdianshiyan2\tongdian-PSpiceFiles\SCHEMATIC1\gong.sim ] 


 ****     INITIAL TRANSIENT SOLUTION       TEMPERATURE =   27.000 DEG C

 ****     CURRENT STEP                     PARAM VAR =  142   


******************************************************************************



 NODE   VOLTAGE     NODE   VOLTAGE     NODE   VOLTAGE     NODE   VOLTAGE


(N00319)    0.0000 (N00330)    0.0000 (N00352)   12.0000 (N00359)   12.0000     

(N00374)   12.0000 




    VOLTAGE SOURCE CURRENTS
    NAME         CURRENT

    V_V1         1.972E-12
    V_V2        -1.593E-11

    TOTAL POWER DISSIPATION   1.91E-10  WATTS


**** 05/20/20 15:03:04 ***** PSpice 16.6.0 (October 2012) ***** ID# 0 ********

 ** Profile: "SCHEMATIC1-gong"  [ E:\PSpice\tongdianshiyan2\tongdian-PSpiceFiles\SCHEMATIC1\gong.sim ] 


 ****     INITIAL TRANSIENT SOLUTION       TEMPERATURE =   27.000 DEG C

 ****     CURRENT STEP                     PARAM VAR =  162   


******************************************************************************



 NODE   VOLTAGE     NODE   VOLTAGE     NODE   VOLTAGE     NODE   VOLTAGE


(N00319)    0.0000 (N00330)    0.0000 (N00352)   12.0000 (N00359)   12.0000     

(N00374)   12.0000 




    VOLTAGE SOURCE CURRENTS
    NAME         CURRENT

    V_V1         1.972E-12
    V_V2        -1.593E-11

    TOTAL POWER DISSIPATION   1.91E-10  WATTS


**** 05/20/20 15:03:04 ***** PSpice 16.6.0 (October 2012) ***** ID# 0 ********

 ** Profile: "SCHEMATIC1-gong"  [ E:\PSpice\tongdianshiyan2\tongdian-PSpiceFiles\SCHEMATIC1\gong.sim ] 


 ****     INITIAL TRANSIENT SOLUTION       TEMPERATURE =   27.000 DEG C

 ****     CURRENT STEP                     PARAM VAR =  182   


******************************************************************************



 NODE   VOLTAGE     NODE   VOLTAGE     NODE   VOLTAGE     NODE   VOLTAGE


(N00319)    0.0000 (N00330)    0.0000 (N00352)   12.0000 (N00359)   12.0000     

(N00374)   12.0000 




    VOLTAGE SOURCE CURRENTS
    NAME         CURRENT

    V_V1         1.972E-12
    V_V2        -1.593E-11

    TOTAL POWER DISSIPATION   1.91E-10  WATTS


**** 05/20/20 15:03:04 ***** PSpice 16.6.0 (October 2012) ***** ID# 0 ********

 ** Profile: "SCHEMATIC1-gong"  [ E:\PSpice\tongdianshiyan2\tongdian-PSpiceFiles\SCHEMATIC1\gong.sim ] 


 ****     INITIAL TRANSIENT SOLUTION       TEMPERATURE =   27.000 DEG C

 ****     CURRENT STEP                     PARAM VAR =  202   


******************************************************************************



 NODE   VOLTAGE     NODE   VOLTAGE     NODE   VOLTAGE     NODE   VOLTAGE


(N00319)    0.0000 (N00330)    0.0000 (N00352)   12.0000 (N00359)   12.0000     

(N00374)   12.0000 




    VOLTAGE SOURCE CURRENTS
    NAME         CURRENT

    V_V1         1.972E-12
    V_V2        -1.593E-11

    TOTAL POWER DISSIPATION   1.91E-10  WATTS



          JOB CONCLUDED

**** 05/20/20 15:03:04 ***** PSpice 16.6.0 (October 2012) ***** ID# 0 ********

 ** Profile: "SCHEMATIC1-gong"  [ E:\PSpice\tongdianshiyan2\tongdian-PSpiceFiles\SCHEMATIC1\gong.sim ] 


 ****     JOB STATISTICS SUMMARY

 ****     CURRENT STEP                     PARAM VAR =  202   


******************************************************************************



  Total job time (using Solver 1)   =         .27
