
**** 05/20/20 20:14:54 ***** PSpice 16.6.0 (October 2012) ***** ID# 0 ********

 ** Profile: "SCHEMATIC1-fz"  [ E:\PSPICE\tongdianshiyan3\lanqiu-PSpiceFiles\SCHEMATIC1\fz.sim ] 


 ****     CIRCUIT DESCRIPTION


******************************************************************************




** Creating circuit file "fz.cir" 
** WARNING: THIS AUTOMATICALLY GENERATED FILE MAY BE OVERWRITTEN BY SUBSEQUENT SIMULATIONS

*Libraries: 
* Profile Libraries :
* Local Libraries :
* From [PSPICE NETLIST] section of C:\Users\baoka\AppData\Roaming\SPB_Data\cdssetup\OrCAD_PSpice/16.6.0/PSpice.ini file:
.lib "nom.lib" 

*Analysis directives: 
.TRAN  0 10000ns 0 8ns 
.STEP LIN PARAM re 1k 5k 1k 
.OPTIONS ADVCONV
.PROBE64 V(alias(*)) I(alias(*)) W(alias(*)) D(alias(*)) NOISE(alias(*)) 
.INC "..\SCHEMATIC1.net" 



**** INCLUDING SCHEMATIC1.net ****
* source LANQIU
C_C1         0 N00224  33n  TC=0,0 
R_R1         N00224 N00374  15k TC=0,0 
R_R2         0 N00224  4.7k TC=0,0 
R_R3         0 N00366  {re} TC=0,0 
L_L1         N00370 N00374  0.53u  
Q_Q1         N00370 N00224 N00366 Q2N2222
C_C2         N00370 N00391  33n  TC=0,0 
C_C3         N00366 N00391  200p  TC=0,0 
C_C4         0 N00366  300p  TC=0,0 
R_R4         N00374 N00577  0.1 TC=0,0 
V_V1         N00577 0 12v
R_R5         0 N00391  1k TC=0,0 
.PARAM  re=1k

**** RESUMING fz.cir ****
.END

**** 05/20/20 20:14:54 ***** PSpice 16.6.0 (October 2012) ***** ID# 0 ********

 ** Profile: "SCHEMATIC1-fz"  [ E:\PSPICE\tongdianshiyan3\lanqiu-PSpiceFiles\SCHEMATIC1\fz.sim ] 


 ****     BJT MODEL PARAMETERS


******************************************************************************




               Q2N2222         
               NPN             
       LEVEL    1            
          IS   14.340000E-15 
          BF  255.9          
          NF    1            
         VAF   74.03         
         IKF     .2847       
         ISE   14.340000E-15 
          NE    1.307        
          BR    6.092        
          NR    1            
         ISS    0            
          RB   10            
          RE    0            
          RC    1            
         CJE   22.010000E-12 
         VJE     .75         
         MJE     .377        
         CJC    7.306000E-12 
         VJC     .75         
         MJC     .3416       
        XCJC    1            
         CJS    0            
         VJS     .75         
          TF  411.100000E-12 
         XTF    3            
         VTF    1.7          
         ITF     .6          
          TR   46.910000E-09 
         XTB    1.5          
          KF    0            
          AF    1            
          CN    2.42         
           D     .87         


**** 05/20/20 20:14:54 ***** PSpice 16.6.0 (October 2012) ***** ID# 0 ********

 ** Profile: "SCHEMATIC1-fz"  [ E:\PSPICE\tongdianshiyan3\lanqiu-PSpiceFiles\SCHEMATIC1\fz.sim ] 


 ****     INITIAL TRANSIENT SOLUTION       TEMPERATURE =   27.000 DEG C

 ****     CURRENT STEP                     PARAM RE =    1.0000E+03


******************************************************************************



 NODE   VOLTAGE     NODE   VOLTAGE     NODE   VOLTAGE     NODE   VOLTAGE


(N00224)    2.8193 (N00366)    2.1565 (N00370)   12.0000 (N00374)   12.0000     

(N00391)    0.0000 (N00577)   12.0000 




    VOLTAGE SOURCE CURRENTS
    NAME         CURRENT

    V_V1        -2.756E-03

    TOTAL POWER DISSIPATION   3.31E-02  WATTS


**** 05/20/20 20:14:54 ***** PSpice 16.6.0 (October 2012) ***** ID# 0 ********

 ** Profile: "SCHEMATIC1-fz"  [ E:\PSPICE\tongdianshiyan3\lanqiu-PSpiceFiles\SCHEMATIC1\fz.sim ] 


 ****     INITIAL TRANSIENT SOLUTION       TEMPERATURE =   27.000 DEG C

 ****     CURRENT STEP                     PARAM RE =    2.0000E+03


******************************************************************************



 NODE   VOLTAGE     NODE   VOLTAGE     NODE   VOLTAGE     NODE   VOLTAGE


(N00224)    2.8393 (N00366)    2.1942 (N00370)   12.0000 (N00374)   12.0000     

(N00391)    0.0000 (N00577)   12.0000 




    VOLTAGE SOURCE CURRENTS
    NAME         CURRENT

    V_V1        -1.701E-03

    TOTAL POWER DISSIPATION   2.04E-02  WATTS


**** 05/20/20 20:14:54 ***** PSpice 16.6.0 (October 2012) ***** ID# 0 ********

 ** Profile: "SCHEMATIC1-fz"  [ E:\PSPICE\tongdianshiyan3\lanqiu-PSpiceFiles\SCHEMATIC1\fz.sim ] 


 ****     INITIAL TRANSIENT SOLUTION       TEMPERATURE =   27.000 DEG C

 ****     CURRENT STEP                     PARAM RE =    3.0000E+03


******************************************************************************



 NODE   VOLTAGE     NODE   VOLTAGE     NODE   VOLTAGE     NODE   VOLTAGE


(N00224)    2.8464 (N00366)    2.2116 (N00370)   12.0000 (N00374)   12.0000     

(N00391)    0.0000 (N00577)   12.0000 




    VOLTAGE SOURCE CURRENTS
    NAME         CURRENT

    V_V1        -1.343E-03

    TOTAL POWER DISSIPATION   1.61E-02  WATTS


**** 05/20/20 20:14:54 ***** PSpice 16.6.0 (October 2012) ***** ID# 0 ********

 ** Profile: "SCHEMATIC1-fz"  [ E:\PSPICE\tongdianshiyan3\lanqiu-PSpiceFiles\SCHEMATIC1\fz.sim ] 


 ****     INITIAL TRANSIENT SOLUTION       TEMPERATURE =   27.000 DEG C

 ****     CURRENT STEP                     PARAM RE =    4.0000E+03


******************************************************************************



 NODE   VOLTAGE     NODE   VOLTAGE     NODE   VOLTAGE     NODE   VOLTAGE


(N00224)    2.8501 (N00366)    2.2227 (N00370)   12.0000 (N00374)   12.0000     

(N00391)    0.0000 (N00577)   12.0000 




    VOLTAGE SOURCE CURRENTS
    NAME         CURRENT

    V_V1        -1.162E-03

    TOTAL POWER DISSIPATION   1.39E-02  WATTS


**** 05/20/20 20:14:54 ***** PSpice 16.6.0 (October 2012) ***** ID# 0 ********

 ** Profile: "SCHEMATIC1-fz"  [ E:\PSPICE\tongdianshiyan3\lanqiu-PSpiceFiles\SCHEMATIC1\fz.sim ] 


 ****     INITIAL TRANSIENT SOLUTION       TEMPERATURE =   27.000 DEG C

 ****     CURRENT STEP                     PARAM RE =    5.0000E+03


******************************************************************************



 NODE   VOLTAGE     NODE   VOLTAGE     NODE   VOLTAGE     NODE   VOLTAGE


(N00224)    2.8524 (N00366)    2.2306 (N00370)   12.0000 (N00374)   12.0000     

(N00391)    0.0000 (N00577)   12.0000 




    VOLTAGE SOURCE CURRENTS
    NAME         CURRENT

    V_V1        -1.053E-03

    TOTAL POWER DISSIPATION   1.26E-02  WATTS



          JOB CONCLUDED

**** 05/20/20 20:14:54 ***** PSpice 16.6.0 (October 2012) ***** ID# 0 ********

 ** Profile: "SCHEMATIC1-fz"  [ E:\PSPICE\tongdianshiyan3\lanqiu-PSpiceFiles\SCHEMATIC1\fz.sim ] 


 ****     JOB STATISTICS SUMMARY

 ****     CURRENT STEP                     PARAM RE =    5.0000E+03


******************************************************************************



  Total job time (using Solver 1)   =         .14
